
**** 08/26/14 12:09:00 ****** PSpice Lite (October 2012) ****** ID# 10813 ****

 ** Profile: "SWITCHEDRC-Trans1"  [ D:\Cadence\SPB_16.6\tools\capture\tclscripts\caplearningresources\hybrid\supportfiles\AnalysesUsi


 ****     CIRCUIT DESCRIPTION


******************************************************************************




** Creating circuit file "Trans1.cir" 
** WARNING: THIS AUTOMATICALLY GENERATED FILE MAY BE OVERWRITTEN BY SUBSEQUENT SIMULATIONS

*Libraries: 
* Profile Libraries :
* Local Libraries :
* From [PSPICE NETLIST] section of C:\Users\nitint\AppData\Roaming\SPB_Data\cdssetup\OrCAD_PSpice/16.6.0/PSpice.ini file:
.lib "nomd.lib" 

*Analysis directives: 
.TRAN  0 150s 0 
.OPTIONS ADVCONV
.PROBE64 V(alias(*)) I(alias(*)) W(alias(*)) D(alias(*)) NOISE(alias(*)) 
.INC "..\SWITCHEDRC.net" 



**** INCLUDING SWITCHEDRC.net ****
* source ANALYSESUSINGPSPICE
X_U1         N00473 N00480 Sw_tOpen PARAMS: tOpen=50 ttran=50 Rclosed=0.1m
+  Ropen=1000G
X_U2         0 N00480 Sw_tClose PARAMS: tClose=50 ttran=1u Rclosed=0.01m
+  Ropen=1000G
R_R1         N00480 N00484  100k TC=0,0 
C_C1         0 N00484  100u IC=0V TC=0,0 
V_V1         N00473 0 5Vdc

**** RESUMING Trans1.cir ****
.END

**** 08/26/14 12:09:00 ****** PSpice Lite (October 2012) ****** ID# 10813 ****

 ** Profile: "SWITCHEDRC-Trans1"  [ D:\Cadence\SPB_16.6\tools\capture\tclscripts\caplearningresources\hybrid\supportfiles\AnalysesUsi


 ****     Voltage Controlled Switch MODEL PARAMETERS


******************************************************************************




               X_U1.Smod       X_U2.Smod       
         RON  100.000000E-06   10.000000E-06 
        ROFF    1.000000E+12    1.000000E+12 
         VON    1               1            
        VOFF    0               0            


**** 08/26/14 12:09:00 ****** PSpice Lite (October 2012) ****** ID# 10813 ****

 ** Profile: "SWITCHEDRC-Trans1"  [ D:\Cadence\SPB_16.6\tools\capture\tclscripts\caplearningresources\hybrid\supportfiles\AnalysesUsi


 ****     INITIAL TRANSIENT SOLUTION       TEMPERATURE =   27.000 DEG C


******************************************************************************



 NODE   VOLTAGE     NODE   VOLTAGE     NODE   VOLTAGE     NODE   VOLTAGE


(N00473)    5.0000 (N00480)    5.0000 (N00484) 100.0E-09 (X_U1.3)    1.0000     

(X_U2.3)    0.0000 




    VOLTAGE SOURCE CURRENTS
    NAME         CURRENT

    V_V1        -5.000E-05
    X_U1.V1     -1.000E-12
    X_U2.V1      0.000E+00

    TOTAL POWER DISSIPATION   2.50E-04  WATTS



          JOB CONCLUDED

**** 08/26/14 12:09:00 ****** PSpice Lite (October 2012) ****** ID# 10813 ****

 ** Profile: "SWITCHEDRC-Trans1"  [ D:\Cadence\SPB_16.6\tools\capture\tclscripts\caplearningresources\hybrid\supportfiles\AnalysesUsi


 ****     JOB STATISTICS SUMMARY


******************************************************************************



  Total job time (using Solver 1)   =         .03
